Bus, BasekV, Node1, Magnitude1, Angle1, pu1, Node2, Magnitude2, Angle2, pu2, Node3, Magnitude3, Angle3, pu3
"SOURCEBUS", 230, 1,     132774,    0.0,   0.99988, 2,     132779, -120.0,   0.99991, 3,     132779,  120.0,   0.99991
"799", 4.8, 1,    2494.09,   -5.5,   0.89998, 2,    2692.92, -123.7,   0.97172, 3,    2593.84,  116.9,   0.93597
"709", 4.8, 1,    2514.33,   -4.3,   0.90728, 2,    2622.06, -124.0,   0.94616, 3,    2579.93,  113.8,   0.93095
"775", 0.48, 1,     251.43,   -4.3,   0.90727, 2,    262.191, -124.0,    0.9461, 3,    258.012,  113.8,   0.93102
"701", 4.8, 1,    2578.35,   -4.0,   0.93038, 2,    2665.35, -123.9,   0.96177, 3,    2624.25,  114.4,   0.94694
"702", 4.8, 1,    2555.97,   -4.1,   0.92231, 2,    2649.53, -124.0,   0.95607, 3,    2605.18,  114.2,   0.94006
"705", 4.8, 1,    2553.66,   -4.0,   0.92147, 2,    2647.17, -124.0,   0.95521, 3,    2600.99,  114.2,   0.93855
"713", 4.8, 1,    2551.94,   -4.1,   0.92085, 2,    2645.13, -124.1,   0.95448, 3,    2599.55,  114.2,   0.93803
"703", 4.8, 1,    2534.96,   -4.2,   0.91473, 2,    2635.47, -124.1,   0.95099, 3,    2592.66,  114.0,   0.93555
"727", 4.8, 1,    2531.65,   -4.2,   0.91353, 2,       2633, -124.0,    0.9501, 3,    2590.72,  113.9,   0.93484
"730", 4.8, 1,    2519.04,   -4.2,   0.90898, 2,    2625.42, -124.0,   0.94737, 3,    2582.71,  113.8,   0.93196
"704", 4.8, 1,    2547.87,   -4.1,   0.91938, 2,    2638.77, -124.1,   0.95218, 3,    2592.96,  114.2,   0.93565
"714", 4.8, 1,    2547.36,   -4.1,    0.9192, 2,    2638.22, -124.1,   0.95198, 3,    2592.88,  114.2,   0.93563
"720", 4.8, 1,    2544.22,   -4.0,   0.91806, 2,    2632.31, -124.2,   0.94985, 3,    2583.29,  114.2,   0.93217
"742", 4.8, 1,    2553.45,   -4.0,    0.9214, 2,    2645.28, -124.1,   0.95453, 3,     2599.5,  114.2,   0.93801
"712", 4.8, 1,    2552.43,   -4.0,   0.92103, 2,    2647.17, -124.0,   0.95521, 3,    2599.59,  114.2,   0.93805
"706", 4.8, 1,    2544.17,   -4.0,   0.91805, 2,    2631.38, -124.2,   0.94952, 3,    2582.32,  114.2,   0.93182
"725", 4.8, 1,    2544.15,   -4.0,   0.91804, 2,    2630.53, -124.2,   0.94921, 3,    2581.62,  114.2,   0.93156
"707", 4.8, 1,    2542.75,   -4.0,   0.91754, 2,    2620.51, -124.3,    0.9456, 3,    2572.22,  114.4,   0.92817
"724", 4.8, 1,     2542.7,   -4.0,   0.91752, 2,    2618.44, -124.3,   0.94485, 3,    2570.51,  114.4,   0.92755
"722", 4.8, 1,    2542.57,   -4.0,   0.91747, 2,     2619.3, -124.3,   0.94516, 3,    2571.05,  114.4,   0.92775
"708", 4.8, 1,    2506.85,   -4.3,   0.90458, 2,    2617.59, -123.9,   0.94454, 3,    2576.42,  113.8,   0.92968
"733", 4.8, 1,    2499.89,   -4.3,   0.90207, 2,    2613.11, -123.9,   0.94292, 3,    2573.38,  113.7,   0.92859
"732", 4.8, 1,    2506.06,   -4.3,    0.9043, 2,    2617.59, -123.9,   0.94454, 3,    2575.49,  113.8,   0.92935
"731", 4.8, 1,    2514.25,   -4.3,   0.90725, 2,     2620.4, -124.0,   0.94556, 3,    2578.15,  113.8,   0.93031
"710", 4.8, 1,    2486.69,   -4.3,   0.89731, 2,    2605.57, -123.9,   0.94021, 3,    2563.85,  113.6,   0.92515
"735", 4.8, 1,     2485.7,   -4.3,   0.89695, 2,    2605.57, -123.9,   0.94021, 3,    2562.72,  113.6,   0.92474
"736", 4.8, 1,     2486.6,   -4.3,   0.89727, 2,    2602.07, -123.9,   0.93894, 3,    2560.94,  113.7,    0.9241
"711", 4.8, 1,    2474.79,   -4.4,   0.89301, 2,    2599.11, -123.8,   0.93787, 3,    2562.16,  113.5,   0.92454
"741", 4.8, 1,    2474.14,   -4.4,   0.89278, 2,    2599.11, -123.8,   0.93787, 3,    2561.58,  113.5,   0.92433
"740", 4.8, 1,     2473.8,   -4.3,   0.89265, 2,    2599.11, -123.8,   0.93787, 3,    2561.03,  113.5,   0.92413
"718", 4.8, 1,    2544.62,   -4.1,   0.91821, 2,    2635.88, -124.0,   0.95114, 3,    2592.96,  114.2,   0.93566
"744", 4.8, 1,    2529.93,   -4.2,   0.91291, 2,    2631.27, -124.0,   0.94948, 3,    2589.91,  113.9,   0.93455
"734", 4.8, 1,    2489.31,   -4.3,   0.89825, 2,       2607, -123.8,   0.94072, 3,    2567.99,  113.6,   0.92664
"737", 4.8, 1,     2480.4,   -4.4,   0.89504, 2,    2600.91, -123.8,   0.93852, 3,    2565.53,  113.6,   0.92576
"738", 4.8, 1,    2476.74,   -4.4,   0.89372, 2,    2599.11, -123.8,   0.93787, 3,     2563.9,  113.5,   0.92517
"728", 4.8, 1,    2528.83,   -4.2,   0.91251, 2,    2630.18, -124.0,   0.94908, 3,    2588.84,  113.9,   0.93417
"729", 4.8, 1,    2529.11,   -4.2,   0.91261, 2,    2630.59, -124.0,   0.94923, 3,    2589.94,  113.9,   0.93456
"799R", 4.8, 1,    2620.42,   -3.9,   0.94556, 2,    2692.92, -123.7,   0.97172, 3,    2662.95,  114.9,   0.96091
